T1224 9299:396 SEGGER J-Link V4.98e Log File (0001ms, 30858ms total)
T1224 9299:396 DLL Compiled: May  5 2015 11:00:52 (0001ms, 30858ms total)
T1224 9299:396 Logging started @ 2016-08-25 22:26 (0001ms, 30858ms total)
T1224 9299:408 JLINK_ExecCommand("Device = AT91SAM4SD32C", ...)Device "ATSAM4SD32C" selected.  returns 0x00 (0001ms, 30859ms total)
T1224 9299:481 JLINK_ExecCommand("ProjectFile = T:\12.01661-6\09.00393-2\Entregas\20-UART\20-UART\jlink.config", ...)  returns 0x00 (0001ms, 30860ms total)
T1224 9299:494 JLINK_ExecCommand("Device = AT91SAM4SD32C", ...)Device "ATSAM4SD32C" selected.  returns 0x00 (0000ms, 30860ms total)
T1224 9299:494 JLINK_TIF_Select(JLINKARM_TIF_JTAG)  returns 0x00 (0002ms, 30862ms total)
T1224 9299:496 JLINK_GetIdData(...) >0x2F8 JTAG>TotalIRLen = 4, IRPrint = 0x01 >0x30 JTAG> >0x210 JTAG> >0x70 JTAG> >0x40 JTAG> >0x40 JTAG> >0x40 JTAG> >0x48 JTAG> >0x78 JTAG> >0x40 JTAG> >0x30 JTAG> >0x40 JTAG> >0x40 JTAG> >0x30 JTAG> >0x40 JTAG> >0x48 JTAG>Found Cortex-M4 r0p1, Little endian. -- CPU_WriteMem(4 bytes @ 0xE0002000) -- CPU_ReadMem(4 bytes @ 0xE000EDF0) -- CPU_ReadMem(4 bytes @ 0xE0002000)FPUnit: 6 code (BP) slots and 2 literal slots -- CPU_ReadMem(4 bytes @ 0xE000EDFC)
 -- CPU_ReadMem(4 bytes @ 0xE0001000) -- CPU_WriteMem(4 bytes @ 0xE0001000) -- CPU_ReadMem(4 bytes @ 0xE000ED88) -- CPU_WriteMem(4 bytes @ 0xE000ED88) -- CPU_ReadMem(4 bytes @ 0xE000ED88) -- CPU_WriteMem(4 bytes @ 0xE000ED88)CoreSight components:ROMTbl 0 @ E00FF000 -- CPU_ReadMem(16 bytes @ 0xE00FF000) -- CPU_ReadMem(16 bytes @ 0xE000EFF0) -- CPU_ReadMem(16 bytes @ 0xE000EFE0)ROMTbl 0 [0]: FFF0F000, CID: B105E00D, PID: 000BB000 SCS -- CPU_ReadMem(16 bytes @ 0xE0001FF0)
 -- CPU_ReadMem(16 bytes @ 0xE0001FE0)ROMTbl 0 [1]: FFF02000, CID: B105E00D, PID: 003BB002 DWT -- CPU_ReadMem(16 bytes @ 0xE0002FF0) -- CPU_ReadMem(16 bytes @ 0xE0002FE0)ROMTbl 0 [2]: FFF03000, CID: B105E00D, PID: 002BB003 FPB -- CPU_ReadMem(16 bytes @ 0xE0000FF0) -- CPU_ReadMem(16 bytes @ 0xE0000FE0)ROMTbl 0 [3]: FFF01000, CID: B105E00D, PID: 003BB001 ITM -- CPU_ReadMem(16 bytes @ 0xE00FF010) -- CPU_ReadMem(16 bytes @ 0xE0040FF0) -- CPU_ReadMem(16 bytes @ 0xE0040FE0)
ROMTbl 0 [4]: FFF41000, CID: B105900D, PID: 000BB9A1 TPIU ScanLen=4 NumDevices=1 aId[0]=0x4BA00477 aIrRead[0]=0 aScanLen[0]=0 aScanRead[0]=0 (0039ms, 30901ms total)
T1224 9299:535 JLINK_ConfigJTAG(IRPre = 0, DRPre = 0) (0000ms, 30901ms total)
T1224 9299:536 JLINK_SetSpeed(1000) (0000ms, 30902ms total)
T1224 9299:536 JLINK_ResetPullsRESET(OFF) (0000ms, 30902ms total)
T1224 9299:536 JLINK_Connect() >0x2F8 JTAG>TotalIRLen = 4, IRPrint = 0x01 >0x30 JTAG> >0x210 JTAG> >0x70 JTAG> >0x40 JTAG> >0x40 JTAG> >0x40 JTAG> >0x48 JTAG> >0x78 JTAG> >0x40 JTAG> >0x30 JTAG> >0x40 JTAG> >0x40 JTAG> >0x30 JTAG> >0x40 JTAG> >0x48 JTAG>Found Cortex-M4 r0p1, Little endian. -- CPU_WriteMem(4 bytes @ 0xE0002000) -- CPU_ReadMem(4 bytes @ 0xE000EDF0) -- CPU_ReadMem(4 bytes @ 0xE0002000)FPUnit: 6 code (BP) slots and 2 literal slots -- CPU_ReadMem(4 bytes @ 0xE000EDFC)
 -- CPU_ReadMem(4 bytes @ 0xE0001000) -- CPU_WriteMem(4 bytes @ 0xE0001000) -- CPU_ReadMem(4 bytes @ 0xE000ED88) -- CPU_WriteMem(4 bytes @ 0xE000ED88) -- CPU_ReadMem(4 bytes @ 0xE000ED88) -- CPU_WriteMem(4 bytes @ 0xE000ED88)CoreSight components:ROMTbl 0 @ E00FF000 -- CPU_ReadMem(16 bytes @ 0xE00FF000) -- CPU_ReadMem(16 bytes @ 0xE000EFF0) -- CPU_ReadMem(16 bytes @ 0xE000EFE0)ROMTbl 0 [0]: FFF0F000, CID: B105E00D, PID: 000BB000 SCS -- CPU_ReadMem(16 bytes @ 0xE0001FF0)
 -- CPU_ReadMem(16 bytes @ 0xE0001FE0)ROMTbl 0 [1]: FFF02000, CID: B105E00D, PID: 003BB002 DWT -- CPU_ReadMem(16 bytes @ 0xE0002FF0) -- CPU_ReadMem(16 bytes @ 0xE0002FE0)ROMTbl 0 [2]: FFF03000, CID: B105E00D, PID: 002BB003 FPB -- CPU_ReadMem(16 bytes @ 0xE0000FF0) -- CPU_ReadMem(16 bytes @ 0xE0000FE0)ROMTbl 0 [3]: FFF01000, CID: B105E00D, PID: 003BB001 ITM -- CPU_ReadMem(16 bytes @ 0xE00FF010) -- CPU_ReadMem(16 bytes @ 0xE0040FF0) -- CPU_ReadMem(16 bytes @ 0xE0040FE0)
ROMTbl 0 [4]: FFF41000, CID: B105900D, PID: 000BB9A1 TPIU  returns 0x00 (0034ms, 30936ms total)
T1224 9299:570 JLINK_GetDebugInfo(0x100) -- Value=0xE00FF003  returns 0x00 (0000ms, 30936ms total)
T1224 9299:570 JLINK_ReadMem (0xE00FFFF0, 0x0010 Bytes, ...) -- CPU is running -- CPU_ReadMem(16 bytes @ 0xE00FFFF0) - Data: 0D 00 00 00 10 00 00 00 05 00 00 00 B1 00 00 00  returns 0x00 (0002ms, 30938ms total)
T1224 9299:572 JLINK_ReadMem (0xE00FFFD0, 0x0020 Bytes, ...) -- CPU is running -- CPU_ReadMem(32 bytes @ 0xE00FFFD0) - Data: 04 00 00 00 00 00 00 00 00 00 00 00 00 00 00 00 ...  returns 0x00 (0001ms, 30939ms total)
T1224 9299:573 JLINK_ReadMemU32(0xE00FF000, 0x0001 Items, ...) -- CPU is running -- CPU_ReadMem(4 bytes @ 0xE00FF000) - Data: 03 F0 F0 FF  returns 0x01 (0001ms, 30940ms total)
T1224 9299:574 JLINK_ReadMem (0xE000EFF0, 0x0010 Bytes, ...) -- CPU is running -- CPU_ReadMem(16 bytes @ 0xE000EFF0) - Data: 0D 00 00 00 E0 00 00 00 05 00 00 00 B1 00 00 00  returns 0x00 (0002ms, 30942ms total)
T1224 9299:576 JLINK_ReadMem (0xE000EFD0, 0x0020 Bytes, ...) -- CPU is running -- CPU_ReadMem(32 bytes @ 0xE000EFD0) - Data: 04 00 00 00 00 00 00 00 00 00 00 00 00 00 00 00 ...  returns 0x00 (0001ms, 30943ms total)
T1224 9299:577 JLINK_ReadMemU32(0xE00FF004, 0x0001 Items, ...) -- CPU is running -- CPU_ReadMem(4 bytes @ 0xE00FF004) - Data: 03 20 F0 FF  returns 0x01 (0001ms, 30944ms total)
T1224 9299:578 JLINK_ReadMem (0xE0001FF0, 0x0010 Bytes, ...) -- CPU is running -- CPU_ReadMem(16 bytes @ 0xE0001FF0) - Data: 0D 00 00 00 E0 00 00 00 05 00 00 00 B1 00 00 00  returns 0x00 (0002ms, 30946ms total)
T1224 9299:580 JLINK_ReadMem (0xE0001FD0, 0x0020 Bytes, ...) -- CPU is running -- CPU_ReadMem(32 bytes @ 0xE0001FD0) - Data: 04 00 00 00 00 00 00 00 00 00 00 00 00 00 00 00 ...  returns 0x00 (0001ms, 30947ms total)
T1224 9299:581 JLINK_ReadMemU32(0xE00FF008, 0x0001 Items, ...) -- CPU is running -- CPU_ReadMem(4 bytes @ 0xE00FF008) - Data: 03 30 F0 FF  returns 0x01 (0001ms, 30948ms total)
T1224 9299:582 JLINK_ReadMem (0xE0002FF0, 0x0010 Bytes, ...) -- CPU is running -- CPU_ReadMem(16 bytes @ 0xE0002FF0) - Data: 0D 00 00 00 E0 00 00 00 05 00 00 00 B1 00 00 00  returns 0x00 (0001ms, 30949ms total)
T1224 9299:583 JLINK_ReadMem (0xE0002FD0, 0x0020 Bytes, ...) -- CPU is running -- CPU_ReadMem(32 bytes @ 0xE0002FD0) - Data: 04 00 00 00 00 00 00 00 00 00 00 00 00 00 00 00 ...  returns 0x00 (0002ms, 30951ms total)
T1224 9299:585 JLINK_ReadMemU32(0xE00FF00C, 0x0001 Items, ...) -- CPU is running -- CPU_ReadMem(4 bytes @ 0xE00FF00C) - Data: 03 10 F0 FF  returns 0x01 (0001ms, 30952ms total)
T1224 9299:586 JLINK_ReadMem (0xE0000FF0, 0x0010 Bytes, ...) -- CPU is running -- CPU_ReadMem(16 bytes @ 0xE0000FF0) - Data: 0D 00 00 00 E0 00 00 00 05 00 00 00 B1 00 00 00  returns 0x00 (0001ms, 30953ms total)
T1224 9299:587 JLINK_ReadMem (0xE0000FD0, 0x0020 Bytes, ...) -- CPU is running -- CPU_ReadMem(32 bytes @ 0xE0000FD0) - Data: 04 00 00 00 00 00 00 00 00 00 00 00 00 00 00 00 ...  returns 0x00 (0002ms, 30955ms total)
T1224 9299:589 JLINK_ReadMemU32(0xE00FF010, 0x0001 Items, ...) -- CPU is running -- CPU_ReadMem(4 bytes @ 0xE00FF010) - Data: 03 10 F4 FF  returns 0x01 (0001ms, 30956ms total)
T1224 9299:590 JLINK_ReadMem (0xE0040FF0, 0x0010 Bytes, ...) -- CPU is running -- CPU_ReadMem(16 bytes @ 0xE0040FF0) - Data: 0D 00 00 00 90 00 00 00 05 00 00 00 B1 00 00 00  returns 0x00 (0001ms, 30957ms total)
T1224 9299:591 JLINK_ReadMem (0xE0040FD0, 0x0020 Bytes, ...) -- CPU is running -- CPU_ReadMem(32 bytes @ 0xE0040FD0) - Data: 04 00 00 00 00 00 00 00 00 00 00 00 00 00 00 00 ...  returns 0x00 (0002ms, 30959ms total)
T1224 9299:593 JLINK_ReadMemU32(0xE00FF014, 0x0001 Items, ...) -- CPU is running -- CPU_ReadMem(4 bytes @ 0xE00FF014) - Data: 02 20 F4 FF  returns 0x01 (0001ms, 30960ms total)
T1224 9299:594 JLINK_ReadMemU32(0xE00FF018, 0x0001 Items, ...) -- CPU is running -- CPU_ReadMem(4 bytes @ 0xE00FF018) - Data: 00 00 00 00  returns 0x01 (0001ms, 30961ms total)
T1224 9299:595 JLINK_ReadMem (0xE0001000, 0x0004 Bytes, ...) -- CPU is running -- CPU_ReadMem(4 bytes @ 0xE0001000) - Data: 01 00 00 40  returns 0x00 (0001ms, 30962ms total)
T1224 9299:596 JLINK_ReadMem (0xE0001000, 0x0004 Bytes, ...) -- CPU is running -- CPU_ReadMem(4 bytes @ 0xE0001000) - Data: 01 00 00 40  returns 0x00 (0001ms, 30963ms total)
T1224 9299:597 JLINK_ReadMem (0xE0001028, 0x0004 Bytes, ...) -- CPU is running -- CPU_ReadMem(4 bytes @ 0xE0001028) - Data: 00 00 00 00  returns 0x00 (0001ms, 30964ms total)
T1224 9299:598 JLINK_WriteMem(0xE0001028, 0x0004 Bytes, ...) - Data: 00 01 00 00 -- CPU is running -- CPU_WriteMem(4 bytes @ 0xE0001028)  returns 0x04 (0001ms, 30965ms total)
T1224 9299:599 JLINK_ReadMem (0xE0001028, 0x0004 Bytes, ...) -- CPU is running -- CPU_ReadMem(4 bytes @ 0xE0001028) - Data: 00 00 00 00  returns 0x00 (0001ms, 30966ms total)
T1224 9299:600 JLINK_ReadMem (0xE0001038, 0x0004 Bytes, ...) -- CPU is running -- CPU_ReadMem(4 bytes @ 0xE0001038) - Data: 00 02 00 00  returns 0x00 (0001ms, 30967ms total)
T1224 9299:601 JLINK_WriteMem(0xE0001038, 0x0004 Bytes, ...) - Data: 00 03 00 00 -- CPU is running -- CPU_WriteMem(4 bytes @ 0xE0001038)  returns 0x04 (0001ms, 30968ms total)
T1224 9299:602 JLINK_ReadMem (0xE0001038, 0x0004 Bytes, ...) -- CPU is running -- CPU_ReadMem(4 bytes @ 0xE0001038) - Data: 00 03 00 00  returns 0x00 (0001ms, 30969ms total)
T1224 9299:603 JLINK_ReadMem (0xE0001048, 0x0004 Bytes, ...) -- CPU is running -- CPU_ReadMem(4 bytes @ 0xE0001048) - Data: 00 00 00 00  returns 0x00 (0001ms, 30970ms total)
T1224 9299:604 JLINK_WriteMem(0xE0001048, 0x0004 Bytes, ...) - Data: 00 01 00 00 -- CPU is running -- CPU_WriteMem(4 bytes @ 0xE0001048)  returns 0x04 (0001ms, 30971ms total)
T1224 9299:605 JLINK_ReadMem (0xE0001048, 0x0004 Bytes, ...) -- CPU is running -- CPU_ReadMem(4 bytes @ 0xE0001048) - Data: 00 00 00 00  returns 0x00 (0001ms, 30972ms total)
T1224 9299:606 JLINK_ReadMem (0xE0001058, 0x0004 Bytes, ...) -- CPU is running -- CPU_ReadMem(4 bytes @ 0xE0001058) - Data: 00 00 00 00  returns 0x00 (0001ms, 30973ms total)
T1224 9299:607 JLINK_WriteMem(0xE0001058, 0x0004 Bytes, ...) - Data: 00 01 00 00 -- CPU is running -- CPU_WriteMem(4 bytes @ 0xE0001058)  returns 0x04 (0001ms, 30974ms total)
T1224 9299:608 JLINK_ReadMem (0xE0001058, 0x0004 Bytes, ...) -- CPU is running -- CPU_ReadMem(4 bytes @ 0xE0001058) - Data: 00 00 00 00  returns 0x00 (0001ms, 30975ms total)
T1224 9299:609 JLINK_ReadMem (0xE0001024, 0x0004 Bytes, ...) -- CPU is running -- CPU_ReadMem(4 bytes @ 0xE0001024) - Data: 00 00 00 00  returns 0x00 (0001ms, 30976ms total)
T1224 9299:610 JLINK_WriteMem(0xE0001024, 0x0004 Bytes, ...) - Data: 1F 00 00 00 -- CPU is running -- CPU_WriteMem(4 bytes @ 0xE0001024)  returns 0x04 (0001ms, 30977ms total)
T1224 9299:611 JLINK_ReadMem (0xE0001024, 0x0004 Bytes, ...) -- CPU is running -- CPU_ReadMem(4 bytes @ 0xE0001024) - Data: 0F 00 00 00  returns 0x00 (0001ms, 30978ms total)
T1224 9299:612 JLINK_ReadMem (0xE0001034, 0x0004 Bytes, ...) -- CPU is running -- CPU_ReadMem(4 bytes @ 0xE0001034) - Data: 00 00 00 00  returns 0x00 (0001ms, 30979ms total)
T1224 9299:613 JLINK_WriteMem(0xE0001034, 0x0004 Bytes, ...) - Data: 1F 00 00 00 -- CPU is running -- CPU_WriteMem(4 bytes @ 0xE0001034)  returns 0x04 (0001ms, 30980ms total)
T1224 9299:614 JLINK_ReadMem (0xE0001034, 0x0004 Bytes, ...) -- CPU is running -- CPU_ReadMem(4 bytes @ 0xE0001034) - Data: 0F 00 00 00  returns 0x00 (0001ms, 30981ms total)
T1224 9299:615 JLINK_ReadMem (0xE0001044, 0x0004 Bytes, ...) -- CPU is running -- CPU_ReadMem(4 bytes @ 0xE0001044) - Data: 00 00 00 00  returns 0x00 (0001ms, 30982ms total)
T1224 9299:616 JLINK_WriteMem(0xE0001044, 0x0004 Bytes, ...) - Data: 1F 00 00 00 -- CPU is running -- CPU_WriteMem(4 bytes @ 0xE0001044)  returns 0x04 (0001ms, 30983ms total)
T1224 9299:617 JLINK_ReadMem (0xE0001044, 0x0004 Bytes, ...) -- CPU is running -- CPU_ReadMem(4 bytes @ 0xE0001044) - Data: 0F 00 00 00  returns 0x00 (0001ms, 30984ms total)
T1224 9299:618 JLINK_ReadMem (0xE0001054, 0x0004 Bytes, ...) -- CPU is running -- CPU_ReadMem(4 bytes @ 0xE0001054) - Data: 00 00 00 00  returns 0x00 (0001ms, 30985ms total)
T1224 9299:619 JLINK_WriteMem(0xE0001054, 0x0004 Bytes, ...) - Data: 1F 00 00 00 -- CPU is running -- CPU_WriteMem(4 bytes @ 0xE0001054)  returns 0x04 (0001ms, 30986ms total)
T1224 9299:620 JLINK_ReadMem (0xE0001054, 0x0004 Bytes, ...) -- CPU is running -- CPU_ReadMem(4 bytes @ 0xE0001054) - Data: 0F 00 00 00  returns 0x00 (0001ms, 30987ms total)
T1224 9299:621 JLINK_ReadMem (0xE0001028, 0x0004 Bytes, ...) -- CPU is running -- CPU_ReadMem(4 bytes @ 0xE0001028) - Data: 00 00 00 00  returns 0x00 (0001ms, 30988ms total)
T1224 9299:622 JLINK_ReadMem (0xE0001038, 0x0004 Bytes, ...) -- CPU is running -- CPU_ReadMem(4 bytes @ 0xE0001038) - Data: 00 03 00 00  returns 0x00 (0001ms, 30989ms total)
T1224 9299:623 JLINK_ReadMem (0xE0001048, 0x0004 Bytes, ...) -- CPU is running -- CPU_ReadMem(4 bytes @ 0xE0001048) - Data: 00 00 00 00  returns 0x00 (0001ms, 30990ms total)
T1224 9299:624 JLINK_ReadMem (0xE0001058, 0x0004 Bytes, ...) -- CPU is running -- CPU_ReadMem(4 bytes @ 0xE0001058) - Data: 00 00 00 00  returns 0x00 (0001ms, 30991ms total)
T1224 9299:625 JLINK_WriteMem(0xE0001020, 0x0004 Bytes, ...) - Data: 00 00 00 00 -- CPU is running -- CPU_WriteMem(4 bytes @ 0xE0001020)  returns 0x04 (0001ms, 30992ms total)
T1224 9299:626 JLINK_WriteMem(0xE0001024, 0x0004 Bytes, ...) - Data: 00 00 00 00 -- CPU is running -- CPU_WriteMem(4 bytes @ 0xE0001024)  returns 0x04 (0001ms, 30993ms total)
T1224 9299:627 JLINK_WriteMem(0xE0001028, 0x0004 Bytes, ...) - Data: 00 00 00 00 -- CPU is running -- CPU_WriteMem(4 bytes @ 0xE0001028)  returns 0x04 (0001ms, 30994ms total)
T1224 9299:628 JLINK_WriteMem(0xE0001030, 0x0004 Bytes, ...) - Data: 00 00 00 00 -- CPU is running -- CPU_WriteMem(4 bytes @ 0xE0001030)  returns 0x04 (0001ms, 30995ms total)
T1224 9299:629 JLINK_WriteMem(0xE0001034, 0x0004 Bytes, ...) - Data: 00 00 00 00 -- CPU is running -- CPU_WriteMem(4 bytes @ 0xE0001034)  returns 0x04 (0001ms, 30996ms total)
T1224 9299:630 JLINK_WriteMem(0xE0001038, 0x0004 Bytes, ...) - Data: 00 00 00 00 -- CPU is running -- CPU_WriteMem(4 bytes @ 0xE0001038)  returns 0x04 (0000ms, 30996ms total)
T1224 9299:630 JLINK_WriteMem(0xE0001040, 0x0004 Bytes, ...) - Data: 00 00 00 00 -- CPU is running -- CPU_WriteMem(4 bytes @ 0xE0001040)  returns 0x04 (0001ms, 30997ms total)
T1224 9299:631 JLINK_WriteMem(0xE0001044, 0x0004 Bytes, ...) - Data: 00 00 00 00 -- CPU is running -- CPU_WriteMem(4 bytes @ 0xE0001044)  returns 0x04 (0001ms, 30998ms total)
T1224 9299:632 JLINK_WriteMem(0xE0001048, 0x0004 Bytes, ...) - Data: 00 00 00 00 -- CPU is running -- CPU_WriteMem(4 bytes @ 0xE0001048)  returns 0x04 (0001ms, 30999ms total)
T1224 9299:633 JLINK_WriteMem(0xE0001050, 0x0004 Bytes, ...) - Data: 00 00 00 00 -- CPU is running -- CPU_WriteMem(4 bytes @ 0xE0001050)  returns 0x04 (0001ms, 31000ms total)
T1224 9299:634 JLINK_WriteMem(0xE0001054, 0x0004 Bytes, ...) - Data: 00 00 00 00 -- CPU is running -- CPU_WriteMem(4 bytes @ 0xE0001054)  returns 0x04 (0001ms, 31001ms total)
T1224 9299:635 JLINK_WriteMem(0xE0001058, 0x0004 Bytes, ...) - Data: 00 00 00 00 -- CPU is running -- CPU_WriteMem(4 bytes @ 0xE0001058)  returns 0x04 (0001ms, 31002ms total)
T1224 9299:636 JLINK_Halt()  returns 0x00 (0009ms, 31011ms total)
T1224 9299:645 JLINK_WriteMem(0x400E0A04, 0x0004 Bytes, ...) - Data: 0B 01 00 5A -- CPU_WriteMem(4 bytes @ 0x400E0A04)  returns 0x04 (0001ms, 31012ms total)
T1224 9299:646 JLINK_ReadMem (0x400E0A08, 0x0004 Bytes, ...) -- CPU_ReadMem(4 bytes @ 0x400E0A08) - Data: 01 00 00 00  returns 0x00 (0001ms, 31013ms total)
T1224 9299:647 JLINK_WriteMem(0x400E0A04, 0x0004 Bytes, ...) - Data: 0C 02 00 5A -- CPU_WriteMem(4 bytes @ 0x400E0A04)  returns 0x04 (0001ms, 31014ms total)
T1224 9299:648 JLINK_ReadMem (0x400E0A08, 0x0004 Bytes, ...) -- CPU_ReadMem(4 bytes @ 0x400E0A08) - Data: 01 00 00 00  returns 0x00 (0001ms, 31015ms total)
T1224 9299:649 JLINK_Reset() -- CPU_ReadMem(16 bytes @ 0x20000000) -- CPU_WriteMem(16 bytes @ 0x20000000) -- CPU_ReadMem(4 bytes @ 0xE000EDFC) -- CPU_WriteMem(4 bytes @ 0xE000EDFC) -- CPU_ReadMem(4 bytes @ 0xE0001000) -- CPU_WriteMem(4 bytes @ 0xE000EDFC) -- CPU_WriteMem(16 bytes @ 0x20000000) -- CPU_WriteMem(4 bytes @ 0xE0002000) -- CPU_ReadMem(4 bytes @ 0xE000EDFC) -- CPU_ReadMem(4 bytes @ 0xE0001000) (0039ms, 31054ms total)
T1224 9299:690 JLINK_JTAG_GetDeviceID(DeviceIndex = 0)  returns 0x4BA00477 (0000ms, 31054ms total)
T1224 9299:690 JLINK_ReadMemU32(0x400E0740, 0x0001 Items, ...) -- CPU_ReadMem(4 bytes @ 0x400E0740) - Data: E0 0E A7 29  returns 0x01 (0001ms, 31055ms total)
T1224 9299:691 JLINK_ReadMemU32(0x400E0744, 0x0001 Items, ...) -- CPU_ReadMem(4 bytes @ 0x400E0744) - Data: 00 00 00 00  returns 0x01 (0001ms, 31056ms total)
T1224 9299:692 JLINK_WriteMem(0x400E0A04, 0x0004 Bytes, ...) - Data: 05 00 00 5A -- CPU_WriteMem(4 bytes @ 0x400E0A04)  returns 0x04 (0001ms, 31057ms total)
T1224 9299:693 JLINK_WriteMem(0x400E0C04, 0x0004 Bytes, ...) - Data: 05 00 00 5A -- CPU_WriteMem(4 bytes @ 0x400E0C04)  returns 0x04 (0001ms, 31058ms total)
T1224 9299:694 JLINK_ReadMem (0x400E0A08, 0x0004 Bytes, ...) -- CPU_ReadMem(4 bytes @ 0x400E0A08) - Data: 00 00 00 00  returns 0x00 (0001ms, 31059ms total)
T1224 9299:696 JLINK_ReadMem (0x400E0A08, 0x0004 Bytes, ...) -- CPU_ReadMem(4 bytes @ 0x400E0A08) - Data: 00 00 00 00  returns 0x00 (0001ms, 31060ms total)
T27A4 9299:700 JLINK_IsHalted()  returns TRUE (0000ms, 31060ms total)
T27A4 9299:700 JLINK_GetMOEs(...) -- CPU_ReadMem(4 bytes @ 0xE000ED30) -- CPU_WriteMem(4 bytes @ 0xE000ED30)  returns 0x01 (0002ms, 31062ms total)
T1224 9299:702 JLINK_ReadMem (0x400E0A08, 0x0004 Bytes, ...) -- CPU_ReadMem(4 bytes @ 0x400E0A08) - Data: 00 00 00 00  returns 0x00 (0001ms, 31063ms total)
T27A4 9299:703 JLINK_ReadReg(R15 (PC))  returns 0x004012A8 (0000ms, 31063ms total)
T1224 9299:719 JLINK_ReadMem (0x400E0A08, 0x0004 Bytes, ...) -- CPU_ReadMem(4 bytes @ 0x400E0A08) - Data: 00 00 00 00  returns 0x00 (0001ms, 31064ms total)
T1224 9299:784 JLINK_ReadMem (0x400E0A08, 0x0004 Bytes, ...) -- CPU_ReadMem(4 bytes @ 0x400E0A08) - Data: 00 00 00 00  returns 0x00 (0001ms, 31065ms total)
T27A4 9299:903 JLINK_IsHalted()  returns TRUE (0000ms, 31065ms total)
T1224 9300:042 JLINK_ReadMem (0x400E0A08, 0x0004 Bytes, ...) -- CPU_ReadMem(4 bytes @ 0x400E0A08) - Data: 00 00 00 00  returns 0x00 (0001ms, 31066ms total)
T27A4 9300:105 JLINK_IsHalted()  returns TRUE (0000ms, 31066ms total)
T27A4 9300:305 JLINK_IsHalted()  returns TRUE (0001ms, 31067ms total)
T27A4 9300:506 JLINK_IsHalted()  returns TRUE (0000ms, 31066ms total)
T27A4 9300:706 JLINK_IsHalted()  returns TRUE (0000ms, 31066ms total)
T27A4 9300:906 JLINK_IsHalted()  returns TRUE (0001ms, 31067ms total)
T1224 9301:043 JLINK_ReadMem (0x400E0A08, 0x0004 Bytes, ...) -- CPU_ReadMem(4 bytes @ 0x400E0A08) - Data: 00 00 00 00  returns 0x00 (0001ms, 31067ms total)
T1224 9301:044 JLINK_ReadMem (0x400E0C08, 0x0004 Bytes, ...) -- CPU_ReadMem(4 bytes @ 0x400E0C08) - Data: 00 00 00 00  returns 0x00 (0002ms, 31069ms total)
T1224 9301:047 JLINK_ReadMem (0x400E0C08, 0x0004 Bytes, ...) -- CPU_ReadMem(4 bytes @ 0x400E0C08) - Data: 00 00 00 00  returns 0x00 (0001ms, 31070ms total)
T1224 9301:052 JLINK_ReadMem (0x400E0C08, 0x0004 Bytes, ...) -- CPU_ReadMem(4 bytes @ 0x400E0C08) - Data: 00 00 00 00  returns 0x00 (0001ms, 31071ms total)
T1224 9301:069 JLINK_ReadMem (0x400E0C08, 0x0004 Bytes, ...) -- CPU_ReadMem(4 bytes @ 0x400E0C08) - Data: 00 00 00 00  returns 0x00 (0001ms, 31072ms total)
T27A4 9301:110 JLINK_IsHalted()  returns TRUE (0000ms, 31072ms total)
T1224 9301:134 JLINK_ReadMem (0x400E0C08, 0x0004 Bytes, ...) -- CPU_ReadMem(4 bytes @ 0x400E0C08) - Data: 00 00 00 00  returns 0x00 (0001ms, 31073ms total)
T27A4 9301:310 JLINK_IsHalted()  returns TRUE (0000ms, 31073ms total)
T1224 9301:391 JLINK_ReadMem (0x400E0C08, 0x0004 Bytes, ...) -- CPU_ReadMem(4 bytes @ 0x400E0C08) - Data: 00 00 00 00  returns 0x00 (0001ms, 31074ms total)
T27A4 9301:510 JLINK_IsHalted()  returns TRUE (0001ms, 31075ms total)
T27A4 9301:711 JLINK_IsHalted()  returns TRUE (0001ms, 31075ms total)
T27A4 9301:912 JLINK_IsHalted()  returns TRUE (0000ms, 31074ms total)
T27A4 9302:112 JLINK_IsHalted()  returns TRUE (0001ms, 31075ms total)
T27A4 9302:313 JLINK_IsHalted()  returns TRUE (0000ms, 31074ms total)
T1224 9302:392 JLINK_ReadMem (0x400E0C08, 0x0004 Bytes, ...) -- CPU_ReadMem(4 bytes @ 0x400E0C08) - Data: 00 00 00 00  returns 0x00 (0001ms, 31075ms total)
T1224 9302:393 JLINK_ReadMem (0x400E0A08, 0x0004 Bytes, ...) -- CPU_ReadMem(4 bytes @ 0x400E0A08) - Data: 00 00 00 00  returns 0x00 (0001ms, 31076ms total)
T1224 9302:396 JLINK_ReadMem (0x400E0A08, 0x0004 Bytes, ...) -- CPU_ReadMem(4 bytes @ 0x400E0A08) - Data: 00 00 00 00  returns 0x00 (0001ms, 31078ms total)
T1224 9302:401 JLINK_ReadMem (0x400E0A08, 0x0004 Bytes, ...) -- CPU_ReadMem(4 bytes @ 0x400E0A08) - Data: 00 00 00 00  returns 0x00 (0001ms, 31079ms total)
T1224 9302:418 JLINK_ReadMem (0x400E0A08, 0x0004 Bytes, ...) -- CPU_ReadMem(4 bytes @ 0x400E0A08) - Data: 00 00 00 00  returns 0x00 (0001ms, 31080ms total)
T1224 9302:483 JLINK_ReadMem (0x400E0A08, 0x0004 Bytes, ...) -- CPU_ReadMem(4 bytes @ 0x400E0A08) - Data: 00 00 00 00  returns 0x00 (0001ms, 31081ms total)
T27A4 9302:513 JLINK_IsHalted()  returns TRUE (0000ms, 31081ms total)
T27A4 9302:713 JLINK_IsHalted()  returns TRUE (0001ms, 31082ms total)
T1224 9302:740 JLINK_ReadMem (0x400E0A08, 0x0004 Bytes, ...) -- CPU_ReadMem(4 bytes @ 0x400E0A08) - Data: 00 00 00 00  returns 0x00 (0001ms, 31082ms total)
T27A4 9302:914 JLINK_IsHalted()  returns TRUE (0000ms, 31082ms total)
T27A4 9303:114 JLINK_IsHalted()  returns TRUE (0000ms, 31082ms total)
T27A4 9303:314 JLINK_IsHalted()  returns TRUE (0001ms, 31083ms total)
T27A4 9303:515 JLINK_IsHalted()  returns TRUE (0000ms, 31082ms total)
T27A4 9303:715 JLINK_IsHalted()  returns TRUE (0000ms, 31082ms total)
T1224 9303:741 JLINK_ReadMem (0x400E0A08, 0x0004 Bytes, ...) -- CPU_ReadMem(4 bytes @ 0x400E0A08) - Data: 00 00 00 00  returns 0x00 (0001ms, 31083ms total)
T1224 9303:742 JLINK_ReadMem (0x400E0C08, 0x0004 Bytes, ...) -- CPU_ReadMem(4 bytes @ 0x400E0C08) - Data: 00 00 00 00  returns 0x00 (0002ms, 31085ms total)
T1224 9303:745 JLINK_ReadMem (0x400E0C08, 0x0004 Bytes, ...) -- CPU_ReadMem(4 bytes @ 0x400E0C08) - Data: 00 00 00 00  returns 0x00 (0001ms, 31086ms total)
T1224 9303:750 JLINK_ReadMem (0x400E0C08, 0x0004 Bytes, ...) -- CPU_ReadMem(4 bytes @ 0x400E0C08) - Data: 00 00 00 00  returns 0x00 (0001ms, 31087ms total)
T1224 9303:767 JLINK_ReadMem (0x400E0C08, 0x0004 Bytes, ...) -- CPU_ReadMem(4 bytes @ 0x400E0C08) - Data: 00 00 00 00  returns 0x00 (0002ms, 31089ms total)
T1224 9303:833 JLINK_ReadMem (0x400E0C08, 0x0004 Bytes, ...) -- CPU_ReadMem(4 bytes @ 0x400E0C08) - Data: 00 00 00 00  returns 0x00 (0001ms, 31090ms total)
T27A4 9303:915 JLINK_IsHalted()  returns TRUE (0001ms, 31091ms total)
T1224 9304:090 JLINK_ReadMem (0x400E0C08, 0x0004 Bytes, ...) -- CPU_ReadMem(4 bytes @ 0x400E0C08) - Data: 00 00 00 00  returns 0x00 (0001ms, 31091ms total)
T27A4 9304:116 JLINK_IsHalted()  returns TRUE (0000ms, 31091ms total)
T27A4 9304:316 JLINK_IsHalted()  returns TRUE (0000ms, 31091ms total)
T27A4 9304:516 JLINK_IsHalted()  returns TRUE (0001ms, 31092ms total)
T27A4 9304:717 JLINK_IsHalted()  returns TRUE (0000ms, 31091ms total)
T27A4 9304:917 JLINK_IsHalted()  returns TRUE (0000ms, 31091ms total)
T1224 9305:091 JLINK_ReadMem (0x400E0C08, 0x0004 Bytes, ...) -- CPU_ReadMem(4 bytes @ 0x400E0C08) - Data: 00 00 00 00  returns 0x00 (0001ms, 31092ms total)
T1224 9305:092 JLINK_ReadMem (0x400E0A08, 0x0004 Bytes, ...) -- CPU_ReadMem(4 bytes @ 0x400E0A08) - Data: 01 00 00 00  returns 0x00 (0002ms, 31094ms total)
T1224 9305:094 JLINK_ReadMem (0x400E0C08, 0x0004 Bytes, ...) -- CPU_ReadMem(4 bytes @ 0x400E0C08) - Data: 00 00 00 00  returns 0x00 (0001ms, 31095ms total)
T1224 9305:096 JLINK_ReadMem (0x400E0C08, 0x0004 Bytes, ...) -- CPU_ReadMem(4 bytes @ 0x400E0C08) - Data: 00 00 00 00  returns 0x00 (0001ms, 31096ms total)
T1224 9305:101 JLINK_ReadMem (0x400E0C08, 0x0004 Bytes, ...) -- CPU_ReadMem(4 bytes @ 0x400E0C08) - Data: 00 00 00 00  returns 0x00 (0001ms, 31097ms total)
T27A4 9305:117 JLINK_IsHalted()  returns TRUE (0001ms, 31098ms total)
T1224 9305:118 JLINK_ReadMem (0x400E0C08, 0x0004 Bytes, ...) -- CPU_ReadMem(4 bytes @ 0x400E0C08) - Data: 00 00 00 00  returns 0x00 (0001ms, 31098ms total)
T1224 9305:183 JLINK_ReadMem (0x400E0C08, 0x0004 Bytes, ...) -- CPU_ReadMem(4 bytes @ 0x400E0C08) - Data: 00 00 00 00  returns 0x00 (0001ms, 31099ms total)
T27A4 9305:318 JLINK_IsHalted()  returns TRUE (0000ms, 31099ms total)
T1224 9305:440 JLINK_ReadMem (0x400E0C08, 0x0004 Bytes, ...) -- CPU_ReadMem(4 bytes @ 0x400E0C08) - Data: 01 00 00 00  returns 0x00 (0001ms, 31100ms total)
T27A4 9305:518 JLINK_IsHalted()  returns TRUE (0000ms, 31100ms total)
T1224 9305:519 JLINK_ResetPullsRESET(ON) (0000ms, 31100ms total)
T1224 9305:519 JLINK_ResetNoHalt() >0x2F8 JTAG>TotalIRLen = 4, IRPrint = 0x01 >0x30 JTAG> >0x210 JTAG> >0x70 JTAG> >0x40 JTAG> >0x40 JTAG> >0x40 JTAG> >0x48 JTAG> >0x78 JTAG> >0x40 JTAG> >0x30 JTAG> >0x40 JTAG> >0x40 JTAG> >0x30 JTAG> >0x40 JTAG> >0x48 JTAG>Found Cortex-M4 r0p1, Little endian. -- CPU_WriteMem(4 bytes @ 0xE0002000) -- CPU_ReadMem(4 bytes @ 0xE000EDF0) -- CPU_ReadMem(4 bytes @ 0xE0002000)FPUnit: 6 code (BP) slots and 2 literal slots -- CPU_ReadMem(4 bytes @ 0xE000EDFC)
 -- CPU_ReadMem(4 bytes @ 0xE0001000) -- CPU_ReadMem(4 bytes @ 0xE000ED88) -- CPU_WriteMem(4 bytes @ 0xE000ED88) -- CPU_ReadMem(4 bytes @ 0xE000ED88) -- CPU_WriteMem(4 bytes @ 0xE000ED88)CoreSight components:ROMTbl 0 @ E00FF000 -- CPU_ReadMem(16 bytes @ 0xE00FF000) -- CPU_ReadMem(16 bytes @ 0xE000EFF0) -- CPU_ReadMem(16 bytes @ 0xE000EFE0)ROMTbl 0 [0]: FFF0F000, CID: B105E00D, PID: 000BB000 SCS -- CPU_WriteMem(4 bytes @ 0xE0001000) -- CPU_ReadMem(16 bytes @ 0xE0001FF0)
 -- CPU_ReadMem(16 bytes @ 0xE0001FE0)ROMTbl 0 [1]: FFF02000, CID: B105E00D, PID: 003BB002 DWT -- CPU_ReadMem(16 bytes @ 0xE0002FF0) -- CPU_ReadMem(16 bytes @ 0xE0002FE0)ROMTbl 0 [2]: FFF03000, CID: B105E00D, PID: 002BB003 FPB -- CPU_ReadMem(16 bytes @ 0xE0000FF0) -- CPU_ReadMem(16 bytes @ 0xE0000FE0)ROMTbl 0 [3]: FFF01000, CID: B105E00D, PID: 003BB001 ITM -- CPU_ReadMem(16 bytes @ 0xE00FF010) -- CPU_ReadMem(16 bytes @ 0xE0040FF0) -- CPU_ReadMem(16 bytes @ 0xE0040FE0)
ROMTbl 0 [4]: FFF41000, CID: B105900D, PID: 000BB9A1 TPIU
                JLINK_Reset() -- CPU_ReadMem(16 bytes @ 0x20000000) -- CPU_WriteMem(16 bytes @ 0x20000000) -- CPU_ReadMem(4 bytes @ 0xE000EDFC) -- CPU_WriteMem(4 bytes @ 0xE000EDFC) -- CPU_ReadMem(4 bytes @ 0xE0001000) -- CPU_WriteMem(4 bytes @ 0xE0001004) -- CPU_WriteMem(4 bytes @ 0xE000EDFC) -- CPU_WriteMem(16 bytes @ 0x20000000) -- CPU_WriteMem(4 bytes @ 0xE0002000) -- CPU_ReadMem(4 bytes @ 0xE000EDFC) -- CPU_ReadMem(4 bytes @ 0xE0001000) (0044ms, 0044ms total)
                JLINK_Go() -- CPU_ReadMem(4 bytes @ 0xE0001000) -- CPU_WriteMem(4 bytes @ 0xE0001004) (0003ms, 0047ms total)
               (0092ms, 31192ms total)
T1224 9305:612 JLINK_ExecCommand("ProjectFile = T:\12.01661-6\09.00393-2\Entregas\20-UART\20-UART\jlink.config", ...)  returns 0x00 (0000ms, 31192ms total)
T1224 9305:626 JLINK_ExecCommand("Device = AT91SAM4SD32C", ...)Device "ATSAM4SD32C" selected.  returns 0x00 (0001ms, 31194ms total)
T1224 9305:627 JLINK_TIF_Select(JLINKARM_TIF_JTAG)  returns 0x00 (0000ms, 31194ms total)
T1224 9305:627 JLINK_GetIdData(...) ScanLen=4 NumDevices=1 aId[0]=0x4BA00477 aIrRead[0]=0 aScanLen[0]=0 aScanRead[0]=0 (0000ms, 31194ms total)
T1224 9305:627 JLINK_ConfigJTAG(IRPre = 0, DRPre = 0) (0000ms, 31194ms total)
T1224 9305:627 JLINK_SetSpeed(4000) (0001ms, 31195ms total)
T1224 9305:628 JLINK_ResetPullsRESET(OFF) (0000ms, 31195ms total)
T1224 9305:628 JLINK_Connect() >0x2F8 JTAG>TotalIRLen = 4, IRPrint = 0x01 >0x30 JTAG> >0x210 JTAG> >0x70 JTAG> >0x40 JTAG> >0x40 JTAG> >0x40 JTAG> >0x48 JTAG> >0x78 JTAG> >0x40 JTAG> >0x30 JTAG> >0x40 JTAG> >0x40 JTAG> >0x30 JTAG> >0x40 JTAG> >0x48 JTAG>Found Cortex-M4 r0p1, Little endian. -- CPU_WriteMem(4 bytes @ 0xE0002000) -- CPU_ReadMem(4 bytes @ 0xE000EDF0) -- CPU_ReadMem(4 bytes @ 0xE0002000)FPUnit: 6 code (BP) slots and 2 literal slots -- CPU_ReadMem(4 bytes @ 0xE000EDFC)
 -- CPU_ReadMem(4 bytes @ 0xE0001000) -- CPU_WriteMem(4 bytes @ 0xE0001000) -- CPU_ReadMem(4 bytes @ 0xE000ED88) -- CPU_WriteMem(4 bytes @ 0xE000ED88) -- CPU_ReadMem(4 bytes @ 0xE000ED88) -- CPU_WriteMem(4 bytes @ 0xE000ED88)CoreSight components:ROMTbl 0 @ E00FF000 -- CPU_ReadMem(16 bytes @ 0xE00FF000) -- CPU_ReadMem(16 bytes @ 0xE000EFF0) -- CPU_ReadMem(16 bytes @ 0xE000EFE0)ROMTbl 0 [0]: FFF0F000, CID: B105E00D, PID: 000BB000 SCS -- CPU_ReadMem(16 bytes @ 0xE0001FF0)
 -- CPU_ReadMem(16 bytes @ 0xE0001FE0)ROMTbl 0 [1]: FFF02000, CID: B105E00D, PID: 003BB002 DWT -- CPU_ReadMem(16 bytes @ 0xE0002FF0) -- CPU_ReadMem(16 bytes @ 0xE0002FE0)ROMTbl 0 [2]: FFF03000, CID: B105E00D, PID: 002BB003 FPB -- CPU_ReadMem(16 bytes @ 0xE0000FF0) -- CPU_ReadMem(16 bytes @ 0xE0000FE0)ROMTbl 0 [3]: FFF01000, CID: B105E00D, PID: 003BB001 ITM -- CPU_ReadMem(16 bytes @ 0xE00FF010) -- CPU_ReadMem(16 bytes @ 0xE0040FF0) -- CPU_ReadMem(16 bytes @ 0xE0040FE0)
ROMTbl 0 [4]: FFF41000, CID: B105900D, PID: 000BB9A1 TPIU  returns 0x00 (0034ms, 31229ms total)
T1224 9305:662 JLINK_WriteMem(0xE0001020, 0x0004 Bytes, ...) - Data: 00 00 00 00 -- CPU is running -- CPU_WriteMem(4 bytes @ 0xE0001020)  returns 0x04 (0001ms, 31230ms total)
T1224 9305:663 JLINK_WriteMem(0xE0001024, 0x0004 Bytes, ...) - Data: 00 00 00 00 -- CPU is running -- CPU_WriteMem(4 bytes @ 0xE0001024)  returns 0x04 (0001ms, 31231ms total)
T1224 9305:664 JLINK_WriteMem(0xE0001028, 0x0004 Bytes, ...) - Data: 00 00 00 00 -- CPU is running -- CPU_WriteMem(4 bytes @ 0xE0001028)  returns 0x04 (0001ms, 31232ms total)
T1224 9305:665 JLINK_WriteMem(0xE0001030, 0x0004 Bytes, ...) - Data: 00 00 00 00 -- CPU is running -- CPU_WriteMem(4 bytes @ 0xE0001030)  returns 0x04 (0001ms, 31233ms total)
T1224 9305:666 JLINK_WriteMem(0xE0001034, 0x0004 Bytes, ...) - Data: 00 00 00 00 -- CPU is running -- CPU_WriteMem(4 bytes @ 0xE0001034)  returns 0x04 (0001ms, 31234ms total)
T1224 9305:667 JLINK_WriteMem(0xE0001038, 0x0004 Bytes, ...) - Data: 00 00 00 00 -- CPU is running -- CPU_WriteMem(4 bytes @ 0xE0001038)  returns 0x04 (0001ms, 31235ms total)
T1224 9305:668 JLINK_WriteMem(0xE0001040, 0x0004 Bytes, ...) - Data: 00 00 00 00 -- CPU is running -- CPU_WriteMem(4 bytes @ 0xE0001040)  returns 0x04 (0001ms, 31236ms total)
T1224 9305:669 JLINK_WriteMem(0xE0001044, 0x0004 Bytes, ...) - Data: 00 00 00 00 -- CPU is running -- CPU_WriteMem(4 bytes @ 0xE0001044)  returns 0x04 (0001ms, 31237ms total)
T1224 9305:670 JLINK_WriteMem(0xE0001048, 0x0004 Bytes, ...) - Data: 00 00 00 00 -- CPU is running -- CPU_WriteMem(4 bytes @ 0xE0001048)  returns 0x04 (0001ms, 31238ms total)
T1224 9305:671 JLINK_WriteMem(0xE0001050, 0x0004 Bytes, ...) - Data: 00 00 00 00 -- CPU is running -- CPU_WriteMem(4 bytes @ 0xE0001050)  returns 0x04 (0001ms, 31239ms total)
T1224 9305:672 JLINK_WriteMem(0xE0001054, 0x0004 Bytes, ...) - Data: 00 00 00 00 -- CPU is running -- CPU_WriteMem(4 bytes @ 0xE0001054)  returns 0x04 (0000ms, 31239ms total)
T1224 9305:672 JLINK_WriteMem(0xE0001058, 0x0004 Bytes, ...) - Data: 00 00 00 00 -- CPU is running -- CPU_WriteMem(4 bytes @ 0xE0001058)  returns 0x04 (0001ms, 31240ms total)
T1224 9305:673 JLINK_Halt()  returns 0x00 (0004ms, 31244ms total)
T1224 9305:677 JLINK_WriteMem(0x400E0A04, 0x0004 Bytes, ...) - Data: 0B 01 00 5A -- CPU_WriteMem(4 bytes @ 0x400E0A04)  returns 0x04 (0001ms, 31245ms total)
T1224 9305:678 JLINK_ReadMem (0x400E0A08, 0x0004 Bytes, ...) -- CPU_ReadMem(4 bytes @ 0x400E0A08) - Data: 01 00 00 00  returns 0x00 (0001ms, 31246ms total)
T1224 9305:679 JLINK_WriteMem(0x400E0A04, 0x0004 Bytes, ...) - Data: 0C 02 00 5A -- CPU_WriteMem(4 bytes @ 0x400E0A04)  returns 0x04 (0001ms, 31247ms total)
T1224 9305:680 JLINK_ReadMem (0x400E0A08, 0x0004 Bytes, ...) -- CPU_ReadMem(4 bytes @ 0x400E0A08) - Data: 01 00 00 00  returns 0x00 (0001ms, 31248ms total)
T1224 9305:681 JLINK_Reset() -- CPU_ReadMem(16 bytes @ 0x20000000) -- CPU_WriteMem(16 bytes @ 0x20000000) -- CPU_ReadMem(4 bytes @ 0xE000EDFC) -- CPU_WriteMem(4 bytes @ 0xE000EDFC) -- CPU_ReadMem(4 bytes @ 0xE0001000) -- CPU_WriteMem(4 bytes @ 0xE000EDFC) -- CPU_WriteMem(16 bytes @ 0x20000000) -- CPU_WriteMem(4 bytes @ 0xE0002000) -- CPU_ReadMem(4 bytes @ 0xE000EDFC) -- CPU_ReadMem(4 bytes @ 0xE0001000) (0028ms, 31276ms total)
T1224 9305:711 JLINK_JTAG_GetDeviceID(DeviceIndex = 0)  returns 0x4BA00477 (0000ms, 31276ms total)
T1224 9305:711 JLINK_ReadMemU32(0x400E0740, 0x0001 Items, ...) -- CPU_ReadMem(4 bytes @ 0x400E0740) - Data: E0 0E A7 29  returns 0x01 (0001ms, 31277ms total)
T1224 9305:712 JLINK_ReadMemU32(0x400E0744, 0x0001 Items, ...) -- CPU_ReadMem(4 bytes @ 0x400E0744) - Data: 00 00 00 00  returns 0x01 (0001ms, 31278ms total)
T1224 9305:715 JLINK_BeginDownload(Flags = 0x00) (0000ms, 31278ms total)
T1224 9305:715 JLINK_WriteMem(0x00400000, 0x37A4 Bytes, ...) - Data: 38 39 00 20 A9 12 40 00 71 13 40 00 71 13 40 00 ...  returns 0x37A4 (0001ms, 31279ms total)
T1224 9305:716 JLINK_WriteMem(0x004037A4, 0x0844 Bytes, ...) - Data: 00 09 3D 00 00 00 00 00 00 00 00 00 F4 02 00 20 ...  returns 0x844 (0000ms, 31279ms total)
T2190 9305:735 JLINK_IsHalted()  returns TRUE (0003ms, 31282ms total)
T2190 9305:738 JLINK_GetMOEs(...) -- CPU_ReadMem(4 bytes @ 0xE000ED30) -- CPU_WriteMem(4 bytes @ 0xE000ED30)  returns 0x01 (0004ms, 31283ms total)
T2190 9305:742 JLINK_ReadReg(R15 (PC)) -- -------------------------------------- -- Start of determining dirty areas in flash cache -- End of determining dirty areas -- Start of preparing flash programming -- Calculating RAM usage -- RAM usage = 2884 Bytes -- Preserving registers -- Preparing memory -- Determining CPU clock frequency -- CPU clock frequency: 4247 kHz -- CPU frequency = 4247 kHz -- Preparing target -- Downloading RAMCode -- Using alternate TurboMode RAMCode -- Checking target RAM
 -- Preparing RAMCode -- End of preparing flash programmingCPU is running at low speed (4247 kHz). -- CPU is running at 4247 kHz. -- Start of comparing flash -- Read back was estimated as fastest method -- Comparing range 0x400000 - 0x403FFF (32 Sectors, 16 KB), using multi-block CRC calculation -- CPU is running -- CPU_ReadMem(512 bytes @ 0x00400000) -- CPU is running -- CPU_ReadMem(512 bytes @ 0x00400200) -- CPU is running -- CPU_ReadMem(512 bytes @ 0x00400400) -- CPU is running
 -- CPU_ReadMem(512 bytes @ 0x00400600) -- CPU is running -- CPU_ReadMem(512 bytes @ 0x00400800) -- CPU is running -- CPU_ReadMem(512 bytes @ 0x00400A00) -- CPU is running -- CPU_ReadMem(512 bytes @ 0x00400C00) -- CPU is running -- CPU_ReadMem(512 bytes @ 0x00400E00) -- CPU is running -- CPU_ReadMem(512 bytes @ 0x00401000) -- CPU is running -- CPU_ReadMem(512 bytes @ 0x00401200) -- CPU is running -- CPU_ReadMem(512 bytes @ 0x00401400) -- CPU is running -- CPU_ReadMem(512 bytes @ 0x00401600)
 -- CPU is running -- CPU_ReadMem(512 bytes @ 0x00401800) -- CPU is running -- CPU_ReadMem(512 bytes @ 0x00401A00) -- CPU is running -- CPU_ReadMem(512 bytes @ 0x00401C00) -- CPU is running -- CPU_ReadMem(512 bytes @ 0x00401E00) -- CPU is running -- CPU_ReadMem(512 bytes @ 0x00402000) -- CPU is running -- CPU_ReadMem(512 bytes @ 0x00402200) -- CPU is running -- CPU_ReadMem(512 bytes @ 0x00402400) -- CPU is running -- CPU_ReadMem(512 bytes @ 0x00402600) -- CPU is running
 -- CPU_ReadMem(512 bytes @ 0x00402800) -- CPU is running -- CPU_ReadMem(512 bytes @ 0x00402A00) -- CPU is running -- CPU_ReadMem(512 bytes @ 0x00402C00) -- CPU is running -- CPU_ReadMem(512 bytes @ 0x00402E00) -- CPU is running -- CPU_ReadMem(512 bytes @ 0x00403000) -- CPU is running -- CPU_ReadMem(512 bytes @ 0x00403200) -- CPU is running -- CPU_ReadMem(512 bytes @ 0x00403400) -- CPU is running -- CPU_ReadMem(512 bytes @ 0x00403600) -- CPU is running -- CPU_ReadMem(512 bytes @ 0x00403800)
 -- CPU is running -- CPU_ReadMem(512 bytes @ 0x00403A00) -- CPU is running -- CPU_ReadMem(512 bytes @ 0x00403C00) -- CPU is running -- CPU_ReadMem(512 bytes @ 0x00403E00) -- CRC does not match for sectors 0-31 -- End of comparing flash -- Start of erasing sectors -- End of erasing sectors -- Start of flash programming -- Programming range 0x00400000 - 0x00403FFF (032 Sectors, 16 KB) -- End of flash programming -- Flash programming performed for 1 range (16384 bytes)
 -- 0x400000 - 0x403FFF (032 Sectors, 16 KB) -- Start of verifying flash -- Checksum calculation was estimated as fastest method -- End of verifying flash -- Start of restoring -- Restore RAMCode -- Restore content of target memory -- Restore target -- Restore memory -- Restore content of registers -- End of restoring -- Total time needed: 0.494s (Prepare: 0.082s, Compare: 0.148s, Erase: 0.000s, Program: 0.247s, Verify: 0.008s, Restore: 0.007s)  returns 0xFFFFFFFE (0499ms, 31782ms total)
T21AC 9306:354 JLINK_Halt()  returns 0x00 (0001ms, 31783ms total)
T21AC 9306:355 JLINK_ReadReg(R15 (PC))  returns 0xFFFFFFFE (0000ms, 31783ms total)
T21AC 9306:355 JLINK_ReadReg(R13 (SP))  returns 0xFFFFFFFC (0000ms, 31783ms total)
T2190 9306:441 JLINK_IsHalted()  returns TRUE (0000ms, 31783ms total)
T21AC 9306:498 JLINK_ReadReg(R0)  returns 0x400E1400 (0000ms, 31783ms total)
T21AC 9306:498 JLINK_ReadReg(R1)  returns 0x40C00000 (0000ms, 31783ms total)
T21AC 9306:498 JLINK_ReadReg(R2)  returns 0xA5000005 (0000ms, 31783ms total)
T21AC 9306:498 JLINK_ReadReg(R3)  returns 0x00000000 (0000ms, 31783ms total)
T21AC 9306:498 JLINK_ReadReg(R4)  returns 0x00400789 (0000ms, 31783ms total)
T21AC 9306:498 JLINK_ReadReg(R5)  returns 0x00000000 (0000ms, 31783ms total)
T21AC 9306:498 JLINK_ReadReg(R6)  returns 0x20000008 (0000ms, 31783ms total)
T21AC 9306:498 JLINK_ReadReg(R7)  returns 0x20003900 (0000ms, 31783ms total)
T21AC 9306:498 JLINK_ReadReg(R8)  returns 0x20000008 (0000ms, 31783ms total)
T21AC 9306:498 JLINK_ReadReg(R9)  returns 0x00000001 (0000ms, 31783ms total)
T21AC 9306:498 JLINK_ReadReg(R10)  returns 0xEAA2C754 (0000ms, 31783ms total)
T21AC 9306:499 JLINK_ReadReg(R11)  returns 0x00404C50 (0000ms, 31784ms total)
T21AC 9306:499 JLINK_ReadReg(R12)  returns 0x01010101 (0000ms, 31784ms total)
T21AC 9306:499 JLINK_ReadReg(R13 (SP))  returns 0xFFFFFFFC (0000ms, 31784ms total)
T21AC 9306:499 JLINK_ReadReg(R14)  returns 0xFFFFFFFF (0000ms, 31784ms total)
T21AC 9306:499 JLINK_ReadReg(R15 (PC))  returns 0xFFFFFFFE (0000ms, 31784ms total)
T21AC 9306:499 JLINK_ReadReg(XPSR)  returns 0x01000000 (0000ms, 31784ms total)
T21AC 9306:499 JLINK_ReadReg(MSP)  returns 0xFFFFFFFC (0000ms, 31784ms total)
T21AC 9306:499 JLINK_ReadReg(PSP)  returns 0x7050AD78 (0000ms, 31784ms total)
T21AC 9306:499 JLINK_ReadReg(PRIMASK)  returns 0x00000000 (0000ms, 31784ms total)
T21AC 9306:499 JLINK_ReadReg(BASEPRI)  returns 0x00000000 (0000ms, 31784ms total)
T21AC 9306:499 JLINK_ReadReg(FAULTMASK)  returns 0x00000000 (0000ms, 31784ms total)
T21AC 9306:499 JLINK_ReadReg(CONTROL)  returns 0x00000000 (0000ms, 31784ms total)
T21AC 9306:541 JLINK_EndDownload()  returns 0x00 (0000ms, 31784ms total)
T21AC 9306:541 JLINK_Reset() -- CPU_ReadMem(16 bytes @ 0x20000000) -- CPU_WriteMem(16 bytes @ 0x20000000) -- CPU_ReadMem(4 bytes @ 0xE000EDFC) -- CPU_WriteMem(4 bytes @ 0xE000EDFC) -- CPU_ReadMem(4 bytes @ 0xE0001000) -- CPU_WriteMem(4 bytes @ 0xE000EDFC) -- CPU_WriteMem(16 bytes @ 0x20000000) -- CPU_WriteMem(4 bytes @ 0xE0002000) -- CPU_ReadMem(4 bytes @ 0xE000EDFC) -- CPU_ReadMem(4 bytes @ 0xE0001000) (0026ms, 31810ms total)
T2190 9306:567 JLINK_IsHalted()  returns TRUE (0000ms, 31810ms total)
T2190 9306:567 JLINK_GetMOEs(...) -- CPU_ReadMem(4 bytes @ 0xE000ED30) -- CPU_WriteMem(4 bytes @ 0xE000ED30)  returns 0x01 (0001ms, 31811ms total)
T2190 9306:569 JLINK_ReadReg(R15 (PC))  returns 0x004012A8 (0000ms, 31812ms total)
T21AC 9306:577 JLINK_ReadReg(R15 (PC))  returns 0x004012A8 (0000ms, 31812ms total)
T21AC 9306:577 JLINK_ReadReg(R13 (SP))  returns 0x20003938 (0000ms, 31812ms total)
T21AC 9306:663 JLINK_ReadMemHW(0x004012A8, 0x0004 Bytes, ...) -- CPU_ReadMem(4 bytes @ 0x004012A8) - Data: 80 B5 84 B0  returns 0x00 (0001ms, 31813ms total)
T21AC 9306:685 JLINK_ReadMemHW(0x00401A30, 0x0002 Bytes, ...) -- CPU_ReadMem(2 bytes @ 0x00401A30) - Data: 11 4B  returns 0x00 (0001ms, 31814ms total)
T21AC 9306:686 JLINK_ReadMemHW(0x00401A32, 0x0002 Bytes, ...) -- CPU_ReadMem(2 bytes @ 0x00401A32) - Data: 1B 78  returns 0x00 (0001ms, 31815ms total)
T21AC 9306:688 JLINK_ReadMemHW(0x00401A30, 0x0002 Bytes, ...) -- CPU_ReadMem(2 bytes @ 0x00401A30) - Data: 11 4B  returns 0x00 (0001ms, 31816ms total)
T1224 9306:689 JLINK_GetNumBPUnits(Type = 0xFFFFFF02)  returns 0x06 (0000ms, 31816ms total)
T1224 9306:689 JLINK_SetBPEx(Addr = 0x00401A30, Type = 0xFFFFFFF2)  returns 0x00000001 (0000ms, 31816ms total)
T1224 9306:689 JLINK_GetBPInfo(BPHandle = 1)  returns 0x00 (0000ms, 31816ms total)
T21AC 9306:759 JLINK_ReadMemHW(0x00401B0C, 0x0001 Bytes, ...) -- CPU_ReadMem(1 bytes @ 0x00401B0C) - Data: 90  returns 0x00 (0001ms, 31817ms total)
T2190 9306:769 JLINK_IsHalted()  returns TRUE (0000ms, 31817ms total)
T21AC 9306:801 JLINK_ReadReg(R15 (PC))  returns 0x004012A8 (0000ms, 31817ms total)
T21AC 9306:801 JLINK_SetBPEx(Addr = 0x00401B0C, Type = 0xFFFFFF02)  returns 0x00000002 (0000ms, 31817ms total)
T21AC 9306:801 JLINK_GetBPInfo(BPHandle = 2)  returns 0x00 (0000ms, 31817ms total)
T21AC 9306:801 JLINK_Go() -- CPU_ReadMem(4 bytes @ 0xE0001000) -- CPU_WriteMem(4 bytes @ 0xE0002008) -- CPU_WriteMem(4 bytes @ 0xE000200C) -- CPU_WriteMem(4 bytes @ 0xE0002010) -- CPU_WriteMem(4 bytes @ 0xE0002014) -- CPU_WriteMem(4 bytes @ 0xE0002018) -- CPU_WriteMem(4 bytes @ 0xE000201C) -- CPU_WriteMem(4 bytes @ 0xE0001004) (0005ms, 31822ms total)
T2190 9306:806 JLINK_IsHalted()  returns FALSE (0000ms, 31822ms total)
T2190 9306:826 JLINK_IsHalted()  returns TRUE (0005ms, 31827ms total)
T2190 9306:831 JLINK_GetMOEs(...) -- CPU_ReadMem(4 bytes @ 0xE000ED30) -- CPU_WriteMem(4 bytes @ 0xE000ED30)  returns 0x01 (0001ms, 31823ms total)
T2190 9306:832 JLINK_ReadReg(R15 (PC))  returns 0x00401B0C (0000ms, 31823ms total)
T2190 9306:832 JLINK_GetBPInfo(BPHandle = 2)  returns 0x00 (0000ms, 31823ms total)
T2190 9306:833 JLINK_ClrBPEx(BPHandle = 0x00000002)  returns 0x00 (0000ms, 31824ms total)
T21AC 9306:836 JLINK_ReadReg(R15 (PC))  returns 0x00401B0C (0000ms, 31824ms total)
T21AC 9306:836 JLINK_ReadReg(R13 (SP))  returns 0x20003920 (0000ms, 31824ms total)
T21AC 9306:836 JLINK_ReadMemHW(0x00401B0C, 0x0004 Bytes, ...) -- CPU_ReadMem(4 bytes @ 0x00401B0C) - Data: 90 B5 87 B0  returns 0x00 (0001ms, 31825ms total)
T21AC 9306:869 JLINK_ReadReg(R15 (PC))  returns 0x00401B0C (0000ms, 31825ms total)
T21AC 9306:869 JLINK_Go() -- CPU_ReadMem(4 bytes @ 0xE0001000) -- CPU_WriteMem(4 bytes @ 0xE000200C) (0003ms, 31828ms total)
T2190 9306:872 JLINK_IsHalted()  returns FALSE (0000ms, 31828ms total)
T2190 9306:912 JLINK_IsHalted()  returns FALSE (0000ms, 31828ms total)
T2190 9307:072 JLINK_IsHalted()  returns FALSE (0001ms, 31829ms total)
T2190 9307:713 JLINK_IsHalted()  returns FALSE (0000ms, 31828ms total)
T2190 9308:353 JLINK_IsHalted()  returns FALSE (0001ms, 31829ms total)
T2190 9308:994 JLINK_IsHalted()  returns FALSE (0001ms, 31829ms total)
T2190 9309:635 JLINK_IsHalted()  returns TRUE (0004ms, 31832ms total)
T2190 9309:639 JLINK_GetMOEs(...) -- CPU_ReadMem(4 bytes @ 0xE000ED30) -- CPU_WriteMem(4 bytes @ 0xE000ED30)  returns 0x01 (0002ms, 31830ms total)
T2190 9309:641 JLINK_ReadReg(R15 (PC))  returns 0x00401A30 (0000ms, 31830ms total)
T21AC 9309:643 JLINK_ReadReg(R15 (PC))  returns 0x00401A30 (0000ms, 31830ms total)
T21AC 9309:643 JLINK_ReadReg(R13 (SP))  returns 0x200038D4 (0000ms, 31830ms total)
T21AC 9309:644 JLINK_ReadMemHW(0x00401A30, 0x0004 Bytes, ...) -- CPU_ReadMem(4 bytes @ 0x00401A30) - Data: 11 4B 1B 78  returns 0x00 (0001ms, 31831ms total)
T21AC 9309:645 JLINK_ReadReg(R0)  returns 0x0000000A (0000ms, 31831ms total)
T21AC 9309:645 JLINK_ReadReg(R1)  returns 0x0000000A (0001ms, 31832ms total)
T21AC 9309:646 JLINK_ReadReg(R2)  returns 0x0000000A (0000ms, 31832ms total)
T21AC 9309:646 JLINK_ReadReg(R3)  returns 0x00000000 (0000ms, 31832ms total)
T21AC 9309:646 JLINK_ReadReg(R4)  returns 0x00400789 (0000ms, 31832ms total)
T21AC 9309:646 JLINK_ReadReg(R5)  returns 0x00000000 (0000ms, 31832ms total)
T21AC 9309:646 JLINK_ReadReg(R6)  returns 0x20000008 (0000ms, 31832ms total)
T21AC 9309:646 JLINK_ReadReg(R7)  returns 0x200038D4 (0000ms, 31832ms total)
T21AC 9309:646 JLINK_ReadReg(R8)  returns 0x20000008 (0000ms, 31832ms total)
T21AC 9309:646 JLINK_ReadReg(R9)  returns 0x00000001 (0000ms, 31832ms total)
T21AC 9309:646 JLINK_ReadReg(R10)  returns 0xEAA2C754 (0000ms, 31832ms total)
T21AC 9309:646 JLINK_ReadReg(R11)  returns 0x00404C50 (0000ms, 31832ms total)
T21AC 9309:646 JLINK_ReadReg(R12)  returns 0x01010101 (0001ms, 31833ms total)
T21AC 9309:647 JLINK_ReadReg(R13 (SP))  returns 0x200038D4 (0000ms, 31833ms total)
T21AC 9309:647 JLINK_ReadReg(R14)  returns 0xFFFFFFF9 (0000ms, 31833ms total)
T21AC 9309:647 JLINK_ReadReg(R15 (PC))  returns 0x00401A30 (0000ms, 31833ms total)
T21AC 9309:647 JLINK_ReadReg(XPSR)  returns 0x61000018 (0000ms, 31833ms total)
T21AC 9309:647 JLINK_ReadReg(MSP)  returns 0x200038D4 (0000ms, 31833ms total)
T21AC 9309:647 JLINK_ReadReg(PSP)  returns 0x7050AD78 (0000ms, 31833ms total)
T21AC 9309:647 JLINK_ReadReg(PRIMASK)  returns 0x00000000 (0000ms, 31833ms total)
T21AC 9309:647 JLINK_ReadReg(BASEPRI)  returns 0x00000000 (0000ms, 31833ms total)
T21AC 9309:648 JLINK_ReadReg(FAULTMASK)  returns 0x00000000 (0000ms, 31833ms total)
T21AC 9309:648 JLINK_ReadReg(CONTROL)  returns 0x00000000 (0000ms, 31833ms total)
T21AC 9309:699 JLINK_ReadMem (0x200038F4, 0x0004 Bytes, ...) -- CPU_ReadMem(64 bytes @ 0x200038C0) -- Updating C cache (64 bytes @ 0x200038C0) -- Read from C cache (4 bytes @ 0x200038F4) - Data: 00 00 00 61  returns 0x00 (0001ms, 31834ms total)
T21AC 9309:701 JLINK_ReadMem (0x200038F0, 0x0004 Bytes, ...) -- Read from C cache (4 bytes @ 0x200038F0) - Data: 40 1B 40 00  returns 0x00 (0000ms, 31834ms total)
T21AC 9309:701 JLINK_ReadMemHW(0x00401B40, 0x0004 Bytes, ...) -- CPU_ReadMem(4 bytes @ 0x00401B40) - Data: FE E7 00 BF  returns 0x00 (0001ms, 31835ms total)
T21AC 9309:702 JLINK_ReadMem (0x200038D4, 0x0004 Bytes, ...) -- Read from C cache (4 bytes @ 0x200038D4) - Data: 00 39 00 20  returns 0x00 (0000ms, 31835ms total)
T1224 9309:750 JLINK_ReadMem (0x40000000, 0x0110 Bytes, ...) -- CPU_ReadMem(272 bytes @ 0x40000000) - Data: 00 00 00 00 00 00 00 00 00 00 00 00 00 00 00 00 ...  returns 0x00 (0002ms, 31837ms total)
T1224 9309:756 JLINK_ReadMem (0x40000000, 0x0110 Bytes, ...) -- CPU_ReadMem(272 bytes @ 0x40000000) - Data: 00 00 00 00 00 00 00 00 00 00 00 00 00 00 00 00 ...  returns 0x00 (0002ms, 31839ms total)
T1224 9309:806 JLINK_GetDebugInfo(0x100) -- Value=0xE00FF003  returns 0x00 (0000ms, 31839ms total)
T1224 9309:806 JLINK_ReadMem (0xE00FFFF0, 0x0010 Bytes, ...) -- CPU_ReadMem(16 bytes @ 0xE00FFFF0) - Data: 0D 00 00 00 10 00 00 00 05 00 00 00 B1 00 00 00  returns 0x00 (0001ms, 31840ms total)
T1224 9309:807 JLINK_ReadMem (0xE00FFFD0, 0x0020 Bytes, ...) -- CPU_ReadMem(32 bytes @ 0xE00FFFD0) - Data: 04 00 00 00 00 00 00 00 00 00 00 00 00 00 00 00 ...  returns 0x00 (0001ms, 31841ms total)
T1224 9309:808 JLINK_ReadMemU32(0xE00FF000, 0x0001 Items, ...) -- CPU_ReadMem(4 bytes @ 0xE00FF000) - Data: 03 F0 F0 FF  returns 0x01 (0001ms, 31842ms total)
T1224 9309:809 JLINK_ReadMem (0xE000EFF0, 0x0010 Bytes, ...) -- CPU_ReadMem(16 bytes @ 0xE000EFF0) - Data: 0D 00 00 00 E0 00 00 00 05 00 00 00 B1 00 00 00  returns 0x00 (0001ms, 31843ms total)
T1224 9309:810 JLINK_ReadMem (0xE000EFD0, 0x0020 Bytes, ...) -- CPU_ReadMem(32 bytes @ 0xE000EFD0) - Data: 04 00 00 00 00 00 00 00 00 00 00 00 00 00 00 00 ...  returns 0x00 (0001ms, 31844ms total)
T1224 9309:811 JLINK_ReadMemU32(0xE00FF004, 0x0001 Items, ...) -- CPU_ReadMem(4 bytes @ 0xE00FF004) - Data: 03 20 F0 FF  returns 0x01 (0001ms, 31845ms total)
T1224 9309:812 JLINK_ReadMem (0xE0001FF0, 0x0010 Bytes, ...) -- CPU_ReadMem(16 bytes @ 0xE0001FF0) - Data: 0D 00 00 00 E0 00 00 00 05 00 00 00 B1 00 00 00  returns 0x00 (0001ms, 31846ms total)
T1224 9309:813 JLINK_ReadMem (0xE0001FD0, 0x0020 Bytes, ...) -- CPU_ReadMem(32 bytes @ 0xE0001FD0) - Data: 04 00 00 00 00 00 00 00 00 00 00 00 00 00 00 00 ...  returns 0x00 (0001ms, 31847ms total)
T1224 9309:814 JLINK_ReadMemU32(0xE00FF008, 0x0001 Items, ...) -- CPU_ReadMem(4 bytes @ 0xE00FF008) - Data: 03 30 F0 FF  returns 0x01 (0001ms, 31848ms total)
T1224 9309:815 JLINK_ReadMem (0xE0002FF0, 0x0010 Bytes, ...) -- CPU_ReadMem(16 bytes @ 0xE0002FF0) - Data: 0D 00 00 00 E0 00 00 00 05 00 00 00 B1 00 00 00  returns 0x00 (0001ms, 31849ms total)
T1224 9309:816 JLINK_ReadMem (0xE0002FD0, 0x0020 Bytes, ...) -- CPU_ReadMem(32 bytes @ 0xE0002FD0) - Data: 04 00 00 00 00 00 00 00 00 00 00 00 00 00 00 00 ...  returns 0x00 (0001ms, 31850ms total)
T1224 9309:817 JLINK_ReadMemU32(0xE00FF00C, 0x0001 Items, ...) -- CPU_ReadMem(4 bytes @ 0xE00FF00C) - Data: 03 10 F0 FF  returns 0x01 (0001ms, 31851ms total)
T1224 9309:818 JLINK_ReadMem (0xE0000FF0, 0x0010 Bytes, ...) -- CPU_ReadMem(16 bytes @ 0xE0000FF0) - Data: 0D 00 00 00 E0 00 00 00 05 00 00 00 B1 00 00 00  returns 0x00 (0001ms, 31852ms total)
T1224 9309:819 JLINK_ReadMem (0xE0000FD0, 0x0020 Bytes, ...) -- CPU_ReadMem(32 bytes @ 0xE0000FD0) - Data: 04 00 00 00 00 00 00 00 00 00 00 00 00 00 00 00 ...  returns 0x00 (0001ms, 31853ms total)
T1224 9309:820 JLINK_ReadMemU32(0xE00FF010, 0x0001 Items, ...) -- CPU_ReadMem(4 bytes @ 0xE00FF010) - Data: 03 10 F4 FF  returns 0x01 (0001ms, 31854ms total)
T1224 9309:821 JLINK_ReadMem (0xE0040FF0, 0x0010 Bytes, ...) -- CPU_ReadMem(16 bytes @ 0xE0040FF0) - Data: 0D 00 00 00 90 00 00 00 05 00 00 00 B1 00 00 00  returns 0x00 (0001ms, 31855ms total)
